;$FILEVERSION=1.1
;$STARTTIME=46190.6957282176
;
;   Generated by AI Simulation
;
;   Message Number
;   |         Time Offset (ms)
;   |         |        Type
;   |         |        |        ID (hex)
;   |         |        |        |     Data Length
;   |         |        |        |     |   Data Bytes (hex) ...
;   |         |        |        |     |   |
;---+--   ----+----  --+--  ----+---  +  -+ -- -- -- -- -- -- --
     1)         0.0  Rx         0106  8  12 C0 00 00 00 00 00 00
     2)         0.0  Rx         0197  8  14 00 00 00 00 00 00 00
     3)         0.0  Rx         0280  8  00 00 7A 50 00 00 00 00
     4)         0.0  Rx         02B5  8  00 00 02 00 00 00 00 00
     5)        10.0  Rx         0106  8  12 CC 00 00 00 00 00 00
     6)        10.0  Rx         0197  8  14 00 00 00 00 00 00 00
     7)        20.0  Rx         0106  8  12 D8 00 00 00 00 00 00
     8)        20.0  Rx         0197  8  14 00 00 00 00 00 00 00
     9)        30.0  Rx         0106  8  12 E4 00 00 00 00 00 00
    10)        30.0  Rx         0197  8  14 00 00 00 00 00 00 00
    11)        40.0  Rx         0106  8  12 F0 00 00 00 00 00 00
    12)        40.0  Rx         0197  8  14 00 00 00 00 00 00 00
    13)        50.0  Rx         0106  8  12 FC 00 00 00 00 00 00
    14)        50.0  Rx         0197  8  14 00 00 00 00 00 00 00
    15)        60.0  Rx         0106  8  13 08 00 00 00 00 00 00
    16)        60.0  Rx         0197  8  14 00 00 00 00 00 00 00
    17)        70.0  Rx         0106  8  13 14 00 00 00 00 00 00
    18)        70.0  Rx         0197  8  14 00 00 00 00 00 00 00
    19)        80.0  Rx         0106  8  13 20 00 00 00 00 00 00
    20)        80.0  Rx         0197  8  14 00 00 00 00 00 00 00
    21)        90.0  Rx         0106  8  13 2C 00 00 00 00 00 00
    22)        90.0  Rx         0197  8  14 00 00 00 00 00 00 00
    23)       100.0  Rx         0106  8  13 38 00 00 00 00 00 00
    24)       100.0  Rx         0197  8  14 00 00 00 00 00 00 00
    25)       100.0  Rx         0280  8  00 00 7A 50 00 00 00 00
    26)       100.0  Rx         02B5  8  00 00 02 00 00 00 00 00
    27)       110.0  Rx         0106  8  13 44 00 00 00 00 00 00
    28)       110.0  Rx         0197  8  14 00 00 00 00 00 00 00
    29)       120.0  Rx         0106  8  13 50 00 00 00 00 00 00
    30)       120.0  Rx         0197  8  14 00 00 00 00 00 00 00
    31)       130.0  Rx         0106  8  13 5C 00 00 00 00 00 00
    32)       130.0  Rx         0197  8  15 00 00 00 00 00 00 00
    33)       140.0  Rx         0106  8  13 68 00 00 00 00 00 00
    34)       140.0  Rx         0197  8  15 00 00 00 00 00 00 00
    35)       150.0  Rx         0106  8  13 74 00 00 00 00 00 00
    36)       150.0  Rx         0197  8  15 00 00 00 00 00 00 00
    37)       160.0  Rx         0106  8  13 80 00 00 00 00 00 00
    38)       160.0  Rx         0197  8  15 00 00 00 00 00 00 00
    39)       170.0  Rx         0106  8  13 8C 00 00 00 00 00 00
    40)       170.0  Rx         0197  8  15 00 00 00 00 00 00 00
    41)       180.0  Rx         0106  8  13 98 00 00 00 00 00 00
    42)       180.0  Rx         0197  8  15 00 00 00 00 00 00 00
    43)       190.0  Rx         0106  8  13 A4 00 00 00 00 00 00
    44)       190.0  Rx         0197  8  15 00 00 00 00 00 00 00
    45)       200.0  Rx         0106  8  13 B0 00 00 00 00 00 00
    46)       200.0  Rx         0197  8  15 00 00 00 00 00 00 00
    47)       200.0  Rx         0280  8  00 00 7A 50 00 00 00 00
    48)       200.0  Rx         02B5  8  00 00 02 00 00 00 00 00
    49)       210.0  Rx         0106  8  13 BC 00 00 00 00 00 00
    50)       210.0  Rx         0197  8  15 00 00 00 00 00 00 00
    51)       220.0  Rx         0106  8  13 C8 00 00 00 00 00 00
    52)       220.0  Rx         0197  8  15 00 00 00 00 00 00 00
    53)       230.0  Rx         0106  8  13 D4 00 00 00 00 00 00
    54)       230.0  Rx         0197  8  15 00 00 00 00 00 00 00
    55)       240.0  Rx         0106  8  13 E0 00 00 00 00 00 00
    56)       240.0  Rx         0197  8  15 00 00 00 00 00 00 00
    57)       250.0  Rx         0106  8  13 EC 00 00 00 00 00 00
    58)       250.0  Rx         0197  8  16 00 00 00 00 00 00 00
    59)       260.0  Rx         0106  8  13 F8 00 00 00 00 00 00
    60)       260.0  Rx         0197  8  16 00 00 00 00 00 00 00
    61)       270.0  Rx         0106  8  14 04 00 00 00 00 00 00
    62)       270.0  Rx         0197  8  16 00 00 00 00 00 00 00
    63)       280.0  Rx         0106  8  14 10 00 00 00 00 00 00
    64)       280.0  Rx         0197  8  16 00 00 00 00 00 00 00
    65)       290.0  Rx         0106  8  14 1C 00 00 00 00 00 00
    66)       290.0  Rx         0197  8  16 00 00 00 00 00 00 00
    67)       300.0  Rx         0106  8  14 28 00 00 00 00 00 00
    68)       300.0  Rx         0197  8  16 00 00 00 00 00 00 00
    69)       300.0  Rx         0280  8  00 00 7A 50 00 00 00 00
    70)       300.0  Rx         02B5  8  00 00 02 00 00 00 00 00
    71)       310.0  Rx         0106  8  14 34 00 00 00 00 00 00
    72)       310.0  Rx         0197  8  16 00 00 00 00 00 00 00
    73)       320.0  Rx         0106  8  14 40 00 00 00 00 00 00
    74)       320.0  Rx         0197  8  16 00 00 00 00 00 00 00
    75)       330.0  Rx         0106  8  14 4C 00 00 00 00 00 00
    76)       330.0  Rx         0197  8  16 00 00 00 00 00 00 00
    77)       340.0  Rx         0106  8  14 58 00 00 00 00 00 00
    78)       340.0  Rx         0197  8  16 00 00 00 00 00 00 00
    79)       350.0  Rx         0106  8  14 64 00 00 00 00 00 00
    80)       350.0  Rx         0197  8  16 00 00 00 00 00 00 00
    81)       360.0  Rx         0106  8  14 70 00 00 00 00 00 00
    82)       360.0  Rx         0197  8  16 00 00 00 00 00 00 00
    83)       370.0  Rx         0106  8  14 7C 00 00 00 00 00 00
    84)       370.0  Rx         0197  8  16 00 00 00 00 00 00 00
    85)       380.0  Rx         0106  8  14 88 00 00 00 00 00 00
    86)       380.0  Rx         0197  8  17 00 00 00 00 00 00 00
    87)       390.0  Rx         0106  8  14 94 00 00 00 00 00 00
    88)       390.0  Rx         0197  8  17 00 00 00 00 00 00 00
    89)       400.0  Rx         0106  8  14 A0 00 00 00 00 00 00
    90)       400.0  Rx         0197  8  17 00 00 00 00 00 00 00
    91)       400.0  Rx         0280  8  00 00 7A 50 00 00 00 00
    92)       400.0  Rx         02B5  8  00 00 02 00 00 00 00 00
    93)       410.0  Rx         0106  8  14 AC 00 00 00 00 00 00
    94)       410.0  Rx         0197  8  17 00 00 00 00 00 00 00
    95)       420.0  Rx         0106  8  14 B8 00 00 00 00 00 00
    96)       420.0  Rx         0197  8  17 00 00 00 00 00 00 00
    97)       430.0  Rx         0106  8  14 C4 00 00 00 00 00 00
    98)       430.0  Rx         0197  8  17 00 00 00 00 00 00 00
    99)       440.0  Rx         0106  8  14 D0 00 00 00 00 00 00
   100)       440.0  Rx         0197  8  17 00 00 00 00 00 00 00
   101)       450.0  Rx         0106  8  14 DC 00 00 00 00 00 00
   102)       450.0  Rx         0197  8  17 00 00 00 00 00 00 00
   103)       460.0  Rx         0106  8  14 E8 00 00 00 00 00 00
   104)       460.0  Rx         0197  8  17 00 00 00 00 00 00 00
   105)       470.0  Rx         0106  8  14 F4 00 00 00 00 00 00
   106)       470.0  Rx         0197  8  17 00 00 00 00 00 00 00
   107)       480.0  Rx         0106  8  15 00 00 00 00 00 00 00
   108)       480.0  Rx         0197  8  17 00 00 00 00 00 00 00
   109)       490.0  Rx         0106  8  15 0C 00 00 00 00 00 00
   110)       490.0  Rx         0197  8  17 00 00 00 00 00 00 00
   111)       500.0  Rx         0106  8  15 18 00 00 00 00 00 00
   112)       500.0  Rx         0197  8  18 00 00 00 00 00 00 00
   113)       500.0  Rx         0280  8  00 00 7A 50 00 00 00 00
   114)       500.0  Rx         02B5  8  00 00 02 00 00 00 00 00
   115)       510.0  Rx         0106  8  15 24 00 00 00 00 00 00
   116)       510.0  Rx         0197  8  18 00 00 00 00 00 00 00
   117)       520.0  Rx         0106  8  15 30 00 00 00 00 00 00
   118)       520.0  Rx         0197  8  18 00 00 00 00 00 00 00
   119)       530.0  Rx         0106  8  15 3C 00 00 00 00 00 00
   120)       530.0  Rx         0197  8  18 00 00 00 00 00 00 00
   121)       540.0  Rx         0106  8  15 48 00 00 00 00 00 00
   122)       540.0  Rx         0197  8  18 00 00 00 00 00 00 00
   123)       550.0  Rx         0106  8  15 54 00 00 00 00 00 00
   124)       550.0  Rx         0197  8  18 00 00 00 00 00 00 00
   125)       560.0  Rx         0106  8  15 60 00 00 00 00 00 00
   126)       560.0  Rx         0197  8  18 00 00 00 00 00 00 00
   127)       570.0  Rx         0106  8  15 6C 00 00 00 00 00 00
   128)       570.0  Rx         0197  8  18 00 00 00 00 00 00 00
   129)       580.0  Rx         0106  8  15 78 00 00 00 00 00 00
   130)       580.0  Rx         0197  8  18 00 00 00 00 00 00 00
   131)       590.0  Rx         0106  8  15 84 00 00 00 00 00 00
   132)       590.0  Rx         0197  8  18 00 00 00 00 00 00 00
   133)       600.0  Rx         0106  8  15 90 00 00 00 00 00 00
   134)       600.0  Rx         0197  8  18 00 00 00 00 00 00 00
   135)       600.0  Rx         0280  8  00 00 7A 50 00 00 00 00
   136)       600.0  Rx         02B5  8  00 00 02 00 00 00 00 00
   137)       610.0  Rx         0106  8  15 9C 00 00 00 00 00 00
   138)       610.0  Rx         0197  8  18 00 00 00 00 00 00 00
   139)       620.0  Rx         0106  8  15 A8 00 00 00 00 00 00
   140)       620.0  Rx         0197  8  18 00 00 00 00 00 00 00
   141)       630.0  Rx         0106  8  15 B4 00 00 00 00 00 00
   142)       630.0  Rx         0197  8  19 00 00 00 00 00 00 00
   143)       640.0  Rx         0106  8  15 C0 00 00 00 00 00 00
   144)       640.0  Rx         0197  8  19 00 00 00 00 00 00 00
   145)       650.0  Rx         0106  8  15 CC 00 00 00 00 00 00
   146)       650.0  Rx         0197  8  19 00 00 00 00 00 00 00
   147)       660.0  Rx         0106  8  15 D8 00 00 00 00 00 00
   148)       660.0  Rx         0197  8  19 00 00 00 00 00 00 00
   149)       670.0  Rx         0106  8  15 E4 00 00 00 00 00 00
   150)       670.0  Rx         0197  8  19 00 00 00 00 00 00 00
   151)       680.0  Rx         0106  8  15 F0 00 00 00 00 00 00
   152)       680.0  Rx         0197  8  19 00 00 00 00 00 00 00
   153)       690.0  Rx         0106  8  15 FC 00 00 00 00 00 00
   154)       690.0  Rx         0197  8  19 00 00 00 00 00 00 00
   155)       700.0  Rx         0106  8  16 08 00 00 00 00 00 00
   156)       700.0  Rx         0197  8  19 00 00 00 00 00 00 00
   157)       700.0  Rx         0280  8  00 00 7A 50 00 00 00 00
   158)       700.0  Rx         02B5  8  00 00 02 00 00 00 00 00
   159)       710.0  Rx         0106  8  16 14 00 00 00 00 00 00
   160)       710.0  Rx         0197  8  19 00 00 00 00 00 00 00
   161)       720.0  Rx         0106  8  16 20 00 00 00 00 00 00
   162)       720.0  Rx         0197  8  19 00 00 00 00 00 00 00
   163)       730.0  Rx         0106  8  16 2C 00 00 00 00 00 00
   164)       730.0  Rx         0197  8  19 00 00 00 00 00 00 00
   165)       740.0  Rx         0106  8  16 38 00 00 00 00 00 00
   166)       740.0  Rx         0197  8  19 00 00 00 00 00 00 00
   167)       750.0  Rx         0106  8  16 44 00 00 00 00 00 00
   168)       750.0  Rx         0197  8  1A 00 00 00 00 00 00 00
   169)       760.0  Rx         0106  8  16 50 00 00 00 00 00 00
   170)       760.0  Rx         0197  8  1A 00 00 00 00 00 00 00
   171)       770.0  Rx         0106  8  16 5C 00 00 00 00 00 00
   172)       770.0  Rx         0197  8  1A 00 00 00 00 00 00 00
   173)       780.0  Rx         0106  8  16 68 00 00 00 00 00 00
   174)       780.0  Rx         0197  8  1A 00 00 00 00 00 00 00
   175)       790.0  Rx         0106  8  16 74 00 00 00 00 00 00
   176)       790.0  Rx         0197  8  1A 00 00 00 00 00 00 00
   177)       800.0  Rx         0106  8  16 80 00 00 00 00 00 00
   178)       800.0  Rx         0197  8  1A 00 00 00 00 00 00 00
   179)       800.0  Rx         0280  8  00 00 7A 50 00 00 00 00
   180)       800.0  Rx         02B5  8  00 00 02 00 00 00 00 00
   181)       810.0  Rx         0106  8  16 8C 00 00 00 00 00 00
   182)       810.0  Rx         0197  8  1A 00 00 00 00 00 00 00
   183)       820.0  Rx         0106  8  16 98 00 00 00 00 00 00
   184)       820.0  Rx         0197  8  1A 00 00 00 00 00 00 00
   185)       830.0  Rx         0106  8  16 A4 00 00 00 00 00 00
   186)       830.0  Rx         0197  8  1A 00 00 00 00 00 00 00
   187)       840.0  Rx         0106  8  16 B0 00 00 00 00 00 00
   188)       840.0  Rx         0197  8  1A 00 00 00 00 00 00 00
   189)       850.0  Rx         0106  8  16 BC 00 00 00 00 00 00
   190)       850.0  Rx         0197  8  1A 00 00 00 00 00 00 00
   191)       860.0  Rx         0106  8  16 C8 00 00 00 00 00 00
   192)       860.0  Rx         0197  8  1A 00 00 00 00 00 00 00
   193)       870.0  Rx         0106  8  16 D4 00 00 00 00 00 00
   194)       870.0  Rx         0197  8  1A 00 00 00 00 00 00 00
   195)       880.0  Rx         0106  8  16 E0 00 00 00 00 00 00
   196)       880.0  Rx         0197  8  1B 00 00 00 00 00 00 00
   197)       890.0  Rx         0106  8  16 EC 00 00 00 00 00 00
   198)       890.0  Rx         0197  8  1B 00 00 00 00 00 00 00
   199)       900.0  Rx         0106  8  16 F8 00 00 00 00 00 00
   200)       900.0  Rx         0197  8  1B 00 00 00 00 00 00 00
   201)       900.0  Rx         0280  8  00 00 7B 50 00 00 00 00
   202)       900.0  Rx         02B5  8  00 00 02 00 00 00 00 00
   203)       910.0  Rx         0106  8  17 04 00 00 00 00 00 00
   204)       910.0  Rx         0197  8  1B 00 00 00 00 00 00 00
   205)       920.0  Rx         0106  8  17 10 00 00 00 00 00 00
   206)       920.0  Rx         0197  8  1B 00 00 00 00 00 00 00
   207)       930.0  Rx         0106  8  17 1C 00 00 00 00 00 00
   208)       930.0  Rx         0197  8  1B 00 00 00 00 00 00 00
   209)       940.0  Rx         0106  8  17 28 00 00 00 00 00 00
   210)       940.0  Rx         0197  8  1B 00 00 00 00 00 00 00
   211)       950.0  Rx         0106  8  17 34 00 00 00 00 00 00
   212)       950.0  Rx         0197  8  1B 00 00 00 00 00 00 00
   213)       960.0  Rx         0106  8  17 40 00 00 00 00 00 00
   214)       960.0  Rx         0197  8  1B 00 00 00 00 00 00 00
   215)       970.0  Rx         0106  8  17 4C 00 00 00 00 00 00
   216)       970.0  Rx         0197  8  1B 00 00 00 00 00 00 00
   217)       980.0  Rx         0106  8  17 58 00 00 00 00 00 00
   218)       980.0  Rx         0197  8  1B 00 00 00 00 00 00 00
   219)       990.0  Rx         0106  8  17 64 00 00 00 00 00 00
   220)       990.0  Rx         0197  8  1B 00 00 00 00 00 00 00
   221)      1000.0  Rx         0106  8  17 70 00 00 00 00 00 00
   222)      1000.0  Rx         0197  8  1C 00 00 00 00 00 00 00
   223)      1000.0  Rx         0280  8  00 00 7B 50 00 00 00 00
   224)      1000.0  Rx         02B5  8  00 00 02 00 00 00 00 00
   225)      1010.0  Rx         0106  8  17 7C 00 00 00 00 00 00
   226)      1010.0  Rx         0197  8  1C 00 00 00 00 00 00 00
   227)      1020.0  Rx         0106  8  17 88 00 00 00 00 00 00
   228)      1020.0  Rx         0197  8  1C 00 00 00 00 00 00 00
   229)      1030.0  Rx         0106  8  17 94 00 00 00 00 00 00
   230)      1030.0  Rx         0197  8  1C 00 00 00 00 00 00 00
   231)      1040.0  Rx         0106  8  17 A0 00 00 00 00 00 00
   232)      1040.0  Rx         0197  8  1C 00 00 00 00 00 00 00
   233)      1050.0  Rx         0106  8  17 AC 00 00 00 00 00 00
   234)      1050.0  Rx         0197  8  1C 00 00 00 00 00 00 00
   235)      1060.0  Rx         0106  8  17 B8 00 00 00 00 00 00
   236)      1060.0  Rx         0197  8  1C 00 00 00 00 00 00 00
   237)      1070.0  Rx         0106  8  17 C4 00 00 00 00 00 00
   238)      1070.0  Rx         0197  8  1C 00 00 00 00 00 00 00
   239)      1080.0  Rx         0106  8  17 D0 00 00 00 00 00 00
   240)      1080.0  Rx         0197  8  1C 00 00 00 00 00 00 00
   241)      1090.0  Rx         0106  8  17 DC 00 00 00 00 00 00
   242)      1090.0  Rx         0197  8  1C 00 00 00 00 00 00 00
   243)      1100.0  Rx         0106  8  17 E8 00 00 00 00 00 00
   244)      1100.0  Rx         0197  8  1C 00 00 00 00 00 00 00
   245)      1100.0  Rx         0280  8  00 00 7B 50 00 00 00 00
   246)      1100.0  Rx         02B5  8  00 00 02 00 00 00 00 00
   247)      1110.0  Rx         0106  8  17 F4 00 00 00 00 00 00
   248)      1110.0  Rx         0197  8  1C 00 00 00 00 00 00 00
   249)      1120.0  Rx         0106  8  18 00 00 00 00 00 00 00
   250)      1120.0  Rx         0197  8  1C 00 00 00 00 00 00 00
   251)      1130.0  Rx         0106  8  18 0C 00 00 00 00 00 00
   252)      1130.0  Rx         0197  8  1D 00 00 00 00 00 00 00
   253)      1140.0  Rx         0106  8  18 18 00 00 00 00 00 00
   254)      1140.0  Rx         0197  8  1D 00 00 00 00 00 00 00
   255)      1150.0  Rx         0106  8  18 24 00 00 00 00 00 00
   256)      1150.0  Rx         0197  8  1D 00 00 00 00 00 00 00
   257)      1160.0  Rx         0106  8  18 30 00 00 00 00 00 00
   258)      1160.0  Rx         0197  8  1D 00 00 00 00 00 00 00
   259)      1170.0  Rx         0106  8  18 3C 00 00 00 00 00 00
   260)      1170.0  Rx         0197  8  1D 00 00 00 00 00 00 00
   261)      1180.0  Rx         0106  8  18 48 00 00 00 00 00 00
   262)      1180.0  Rx         0197  8  1D 00 00 00 00 00 00 00
   263)      1190.0  Rx         0106  8  18 54 00 00 00 00 00 00
   264)      1190.0  Rx         0197  8  1D 00 00 00 00 00 00 00
   265)      1200.0  Rx         0106  8  18 60 00 00 00 00 00 00
   266)      1200.0  Rx         0197  8  1D 00 00 00 00 00 00 00
   267)      1200.0  Rx         0280  8  00 00 7B 50 00 00 00 00
   268)      1200.0  Rx         02B5  8  00 00 02 00 00 00 00 00
   269)      1210.0  Rx         0106  8  18 6C 00 00 00 00 00 00
   270)      1210.0  Rx         0197  8  1D 00 00 00 00 00 00 00
   271)      1220.0  Rx         0106  8  18 78 00 00 00 00 00 00
   272)      1220.0  Rx         0197  8  1D 00 00 00 00 00 00 00
   273)      1230.0  Rx         0106  8  18 84 00 00 00 00 00 00
   274)      1230.0  Rx         0197  8  1D 00 00 00 00 00 00 00
   275)      1240.0  Rx         0106  8  18 90 00 00 00 00 00 00
   276)      1240.0  Rx         0197  8  1D 00 00 00 00 00 00 00
   277)      1250.0  Rx         0106  8  18 9C 00 00 00 00 00 00
   278)      1250.0  Rx         0197  8  1E 00 00 00 00 00 00 00
   279)      1260.0  Rx         0106  8  18 A8 00 00 00 00 00 00
   280)      1260.0  Rx         0197  8  1E 00 00 00 00 00 00 00
   281)      1270.0  Rx         0106  8  18 B4 00 00 00 00 00 00
   282)      1270.0  Rx         0197  8  1E 00 00 00 00 00 00 00
   283)      1280.0  Rx         0106  8  18 C0 00 00 00 00 00 00
   284)      1280.0  Rx         0197  8  1E 00 00 00 00 00 00 00
   285)      1290.0  Rx         0106  8  18 CC 00 00 00 00 00 00
   286)      1290.0  Rx         0197  8  1E 00 00 00 00 00 00 00
   287)      1300.0  Rx         0106  8  18 D8 00 00 00 00 00 00
   288)      1300.0  Rx         0197  8  1E 00 00 00 00 00 00 00
   289)      1300.0  Rx         0280  8  00 00 7B 50 00 00 00 00
   290)      1300.0  Rx         02B5  8  00 00 02 00 00 00 00 00
   291)      1310.0  Rx         0106  8  18 E4 00 00 00 00 00 00
   292)      1310.0  Rx         0197  8  1E 00 00 00 00 00 00 00
   293)      1320.0  Rx         0106  8  18 F0 00 00 00 00 00 00
   294)      1320.0  Rx         0197  8  1E 00 00 00 00 00 00 00
   295)      1330.0  Rx         0106  8  18 FC 00 00 00 00 00 00
   296)      1330.0  Rx         0197  8  1E 00 00 00 00 00 00 00
   297)      1340.0  Rx         0106  8  19 08 00 00 00 00 00 00
   298)      1340.0  Rx         0197  8  1E 00 00 00 00 00 00 00
   299)      1350.0  Rx         0106  8  19 14 00 00 00 00 00 00
   300)      1350.0  Rx         0197  8  1E 00 00 00 00 00 00 00
   301)      1360.0  Rx         0106  8  19 20 00 00 00 00 00 00
   302)      1360.0  Rx         0197  8  1E 00 00 00 00 00 00 00
   303)      1370.0  Rx         0106  8  19 2C 00 00 00 00 00 00
   304)      1370.0  Rx         0197  8  1E 00 00 00 00 00 00 00
   305)      1380.0  Rx         0106  8  19 38 00 00 00 00 00 00
   306)      1380.0  Rx         0197  8  1F 00 00 00 00 00 00 00
   307)      1390.0  Rx         0106  8  19 44 00 00 00 00 00 00
   308)      1390.0  Rx         0197  8  1F 00 00 00 00 00 00 00
   309)      1400.0  Rx         0106  8  19 50 00 00 00 00 00 00
   310)      1400.0  Rx         0197  8  1F 00 00 00 00 00 00 00
   311)      1400.0  Rx         0280  8  00 00 7B 50 00 00 00 00
   312)      1400.0  Rx         02B5  8  00 00 02 00 00 00 00 00
   313)      1410.0  Rx         0106  8  19 5C 00 00 00 00 00 00
   314)      1410.0  Rx         0197  8  1F 00 00 00 00 00 00 00
   315)      1420.0  Rx         0106  8  19 68 00 00 00 00 00 00
   316)      1420.0  Rx         0197  8  1F 00 00 00 00 00 00 00
   317)      1430.0  Rx         0106  8  19 74 00 00 00 00 00 00
   318)      1430.0  Rx         0197  8  1F 00 00 00 00 00 00 00
   319)      1440.0  Rx         0106  8  19 80 00 00 00 00 00 00
   320)      1440.0  Rx         0197  8  1F 00 00 00 00 00 00 00
   321)      1450.0  Rx         0106  8  19 8C 00 00 00 00 00 00
   322)      1450.0  Rx         0197  8  1F 00 00 00 00 00 00 00
   323)      1460.0  Rx         0106  8  19 98 00 00 00 00 00 00
   324)      1460.0  Rx         0197  8  1F 00 00 00 00 00 00 00
   325)      1470.0  Rx         0106  8  19 A4 00 00 00 00 00 00
   326)      1470.0  Rx         0197  8  1F 00 00 00 00 00 00 00
   327)      1480.0  Rx         0106  8  19 B0 00 00 00 00 00 00
   328)      1480.0  Rx         0197  8  1F 00 00 00 00 00 00 00
   329)      1490.0  Rx         0106  8  19 BC 00 00 00 00 00 00
   330)      1490.0  Rx         0197  8  1F 00 00 00 00 00 00 00
   331)      1500.0  Rx         0106  8  19 C8 00 00 00 00 00 00
   332)      1500.0  Rx         0197  8  20 00 00 00 00 00 00 00
   333)      1500.0  Rx         0280  8  00 00 7B 50 00 00 00 00
   334)      1500.0  Rx         02B5  8  00 00 02 00 00 00 00 00
   335)      1510.0  Rx         0106  8  19 D4 00 00 00 00 00 00
   336)      1510.0  Rx         0197  8  20 00 00 00 00 00 00 00
   337)      1520.0  Rx         0106  8  19 E0 00 00 00 00 00 00
   338)      1520.0  Rx         0197  8  20 00 00 00 00 00 00 00
   339)      1530.0  Rx         0106  8  19 EC 00 00 00 00 00 00
   340)      1530.0  Rx         0197  8  20 00 00 00 00 00 00 00
   341)      1540.0  Rx         0106  8  19 F8 00 00 00 00 00 00
   342)      1540.0  Rx         0197  8  20 00 00 00 00 00 00 00
   343)      1550.0  Rx         0106  8  1A 04 00 00 00 00 00 00
   344)      1550.0  Rx         0197  8  20 00 00 00 00 00 00 00
   345)      1560.0  Rx         0106  8  1A 10 00 00 00 00 00 00
   346)      1560.0  Rx         0197  8  20 00 00 00 00 00 00 00
   347)      1570.0  Rx         0106  8  1A 1C 00 00 00 00 00 00
   348)      1570.0  Rx         0197  8  20 00 00 00 00 00 00 00
   349)      1580.0  Rx         0106  8  1A 28 00 00 00 00 00 00
   350)      1580.0  Rx         0197  8  20 00 00 00 00 00 00 00
   351)      1590.0  Rx         0106  8  1A 34 00 00 00 00 00 00
   352)      1590.0  Rx         0197  8  20 00 00 00 00 00 00 00
   353)      1600.0  Rx         0106  8  1A 40 00 00 00 00 00 00
   354)      1600.0  Rx         0197  8  20 00 00 00 00 00 00 00
   355)      1600.0  Rx         0280  8  00 00 7B 50 00 00 00 00
   356)      1600.0  Rx         02B5  8  00 00 02 00 00 00 00 00
   357)      1610.0  Rx         0106  8  1A 4C 00 00 00 00 00 00
   358)      1610.0  Rx         0197  8  20 00 00 00 00 00 00 00
   359)      1620.0  Rx         0106  8  1A 58 00 00 00 00 00 00
   360)      1620.0  Rx         0197  8  20 00 00 00 00 00 00 00
   361)      1630.0  Rx         0106  8  1A 64 00 00 00 00 00 00
   362)      1630.0  Rx         0197  8  21 00 00 00 00 00 00 00
   363)      1640.0  Rx         0106  8  1A 70 00 00 00 00 00 00
   364)      1640.0  Rx         0197  8  21 00 00 00 00 00 00 00
   365)      1650.0  Rx         0106  8  1A 7C 00 00 00 00 00 00
   366)      1650.0  Rx         0197  8  21 00 00 00 00 00 00 00
   367)      1660.0  Rx         0106  8  1A 88 00 00 00 00 00 00
   368)      1660.0  Rx         0197  8  21 00 00 00 00 00 00 00
   369)      1670.0  Rx         0106  8  1A 94 00 00 00 00 00 00
   370)      1670.0  Rx         0197  8  21 00 00 00 00 00 00 00
   371)      1680.0  Rx         0106  8  1A A0 00 00 00 00 00 00
   372)      1680.0  Rx         0197  8  21 00 00 00 00 00 00 00
   373)      1690.0  Rx         0106  8  1A AC 00 00 00 00 00 00
   374)      1690.0  Rx         0197  8  21 00 00 00 00 00 00 00
   375)      1700.0  Rx         0106  8  1A B8 00 00 00 00 00 00
   376)      1700.0  Rx         0197  8  21 00 00 00 00 00 00 00
   377)      1700.0  Rx         0280  8  00 00 7C 50 00 00 00 00
   378)      1700.0  Rx         02B5  8  00 00 02 00 00 00 00 00
   379)      1710.0  Rx         0106  8  1A C4 00 00 00 00 00 00
   380)      1710.0  Rx         0197  8  21 00 00 00 00 00 00 00
   381)      1720.0  Rx         0106  8  1A D0 00 00 00 00 00 00
   382)      1720.0  Rx         0197  8  21 00 00 00 00 00 00 00
   383)      1730.0  Rx         0106  8  1A DC 00 00 00 00 00 00
   384)      1730.0  Rx         0197  8  21 00 00 00 00 00 00 00
   385)      1740.0  Rx         0106  8  1A E8 00 00 00 00 00 00
   386)      1740.0  Rx         0197  8  21 00 00 00 00 00 00 00
   387)      1750.0  Rx         0106  8  1A F4 00 00 00 00 00 00
   388)      1750.0  Rx         0197  8  22 00 00 00 00 00 00 00
   389)      1760.0  Rx         0106  8  1B 00 00 00 00 00 00 00
   390)      1760.0  Rx         0197  8  22 00 00 00 00 00 00 00
   391)      1770.0  Rx         0106  8  1B 0C 00 00 00 00 00 00
   392)      1770.0  Rx         0197  8  22 00 00 00 00 00 00 00
   393)      1780.0  Rx         0106  8  1B 18 00 00 00 00 00 00
   394)      1780.0  Rx         0197  8  22 00 00 00 00 00 00 00
   395)      1790.0  Rx         0106  8  1B 24 00 00 00 00 00 00
   396)      1790.0  Rx         0197  8  22 00 00 00 00 00 00 00
   397)      1800.0  Rx         0106  8  1B 30 00 00 00 00 00 00
   398)      1800.0  Rx         0197  8  22 00 00 00 00 00 00 00
   399)      1800.0  Rx         0280  8  00 00 7C 50 00 00 00 00
   400)      1800.0  Rx         02B5  8  00 00 02 00 00 00 00 00
   401)      1810.0  Rx         0106  8  1B 3C 00 00 00 00 00 00
   402)      1810.0  Rx         0197  8  22 00 00 00 00 00 00 00
   403)      1820.0  Rx         0106  8  1B 48 00 00 00 00 00 00
   404)      1820.0  Rx         0197  8  22 00 00 00 00 00 00 00
   405)      1830.0  Rx         0106  8  1B 54 00 00 00 00 00 00
   406)      1830.0  Rx         0197  8  22 00 00 00 00 00 00 00
   407)      1840.0  Rx         0106  8  1B 60 00 00 00 00 00 00
   408)      1840.0  Rx         0197  8  22 00 00 00 00 00 00 00
   409)      1850.0  Rx         0106  8  1B 6C 00 00 00 00 00 00
   410)      1850.0  Rx         0197  8  22 00 00 00 00 00 00 00
   411)      1860.0  Rx         0106  8  1B 78 00 00 00 00 00 00
   412)      1860.0  Rx         0197  8  22 00 00 00 00 00 00 00
   413)      1870.0  Rx         0106  8  1B 84 00 00 00 00 00 00
   414)      1870.0  Rx         0197  8  22 00 00 00 00 00 00 00
   415)      1880.0  Rx         0106  8  1B 90 00 00 00 00 00 00
   416)      1880.0  Rx         0197  8  23 00 00 00 00 00 00 00
   417)      1890.0  Rx         0106  8  1B 9C 00 00 00 00 00 00
   418)      1890.0  Rx         0197  8  23 00 00 00 00 00 00 00
   419)      1900.0  Rx         0106  8  1B A8 00 00 00 00 00 00
   420)      1900.0  Rx         0197  8  23 00 00 00 00 00 00 00
   421)      1900.0  Rx         0280  8  00 00 7C 50 00 00 00 00
   422)      1900.0  Rx         02B5  8  00 00 02 00 00 00 00 00
   423)      1910.0  Rx         0106  8  1B B4 00 00 00 00 00 00
   424)      1910.0  Rx         0197  8  23 00 00 00 00 00 00 00
   425)      1920.0  Rx         0106  8  1B C0 00 00 00 00 00 00
   426)      1920.0  Rx         0197  8  23 00 00 00 00 00 00 00
   427)      1930.0  Rx         0106  8  1B CC 00 00 00 00 00 00
   428)      1930.0  Rx         0197  8  23 00 00 00 00 00 00 00
   429)      1940.0  Rx         0106  8  1B D8 00 00 00 00 00 00
   430)      1940.0  Rx         0197  8  23 00 00 00 00 00 00 00
   431)      1950.0  Rx         0106  8  1B E4 00 00 00 00 00 00
   432)      1950.0  Rx         0197  8  23 00 00 00 00 00 00 00
   433)      1960.0  Rx         0106  8  1B F0 00 00 00 00 00 00
   434)      1960.0  Rx         0197  8  23 00 00 00 00 00 00 00
   435)      1970.0  Rx         0106  8  1B FC 00 00 00 00 00 00
   436)      1970.0  Rx         0197  8  23 00 00 00 00 00 00 00
   437)      1980.0  Rx         0106  8  1C 08 00 00 00 00 00 00
   438)      1980.0  Rx         0197  8  23 00 00 00 00 00 00 00
   439)      1990.0  Rx         0106  8  1C 14 00 00 00 00 00 00
   440)      1990.0  Rx         0197  8  23 00 00 00 00 00 00 00
   441)      2000.0  Rx         0106  8  1C 20 00 00 00 00 00 00
   442)      2000.0  Rx         0197  8  24 00 00 00 00 00 00 00
   443)      2000.0  Rx         0280  8  00 00 7C 50 00 00 00 00
   444)      2000.0  Rx         02B5  8  00 00 02 00 00 00 00 00
   445)      2010.0  Rx         0106  8  1C 2C 00 00 00 00 00 00
   446)      2010.0  Rx         0197  8  24 00 00 00 00 00 00 00
   447)      2020.0  Rx         0106  8  1C 38 00 00 00 00 00 00
   448)      2020.0  Rx         0197  8  24 00 00 00 00 00 00 00
   449)      2030.0  Rx         0106  8  1C 44 00 00 00 00 00 00
   450)      2030.0  Rx         0197  8  24 00 00 00 00 00 00 00
   451)      2040.0  Rx         0106  8  1C 50 00 00 00 00 00 00
   452)      2040.0  Rx         0197  8  24 00 00 00 00 00 00 00
   453)      2050.0  Rx         0106  8  1C 5C 00 00 00 00 00 00
   454)      2050.0  Rx         0197  8  24 00 00 00 00 00 00 00
   455)      2060.0  Rx         0106  8  1C 68 00 00 00 00 00 00
   456)      2060.0  Rx         0197  8  24 00 00 00 00 00 00 00
   457)      2070.0  Rx         0106  8  1C 74 00 00 00 00 00 00
   458)      2070.0  Rx         0197  8  24 00 00 00 00 00 00 00
   459)      2080.0  Rx         0106  8  1C 80 00 00 00 00 00 00
   460)      2080.0  Rx         0197  8  24 00 00 00 00 00 00 00
   461)      2090.0  Rx         0106  8  1C 8C 00 00 00 00 00 00
   462)      2090.0  Rx         0197  8  24 00 00 00 00 00 00 00
   463)      2100.0  Rx         0106  8  1C 98 00 00 00 00 00 00
   464)      2100.0  Rx         0197  8  24 00 00 00 00 00 00 00
   465)      2100.0  Rx         0280  8  00 00 7C 50 00 00 00 00
   466)      2100.0  Rx         02B5  8  00 00 02 00 00 00 00 00
   467)      2110.0  Rx         0106  8  1C A4 00 00 00 00 00 00
   468)      2110.0  Rx         0197  8  24 00 00 00 00 00 00 00
   469)      2120.0  Rx         0106  8  1C B0 00 00 00 00 00 00
   470)      2120.0  Rx         0197  8  24 00 00 00 00 00 00 00
   471)      2130.0  Rx         0106  8  1C BC 00 00 00 00 00 00
   472)      2130.0  Rx         0197  8  25 00 00 00 00 00 00 00
   473)      2140.0  Rx         0106  8  1C C8 00 00 00 00 00 00
   474)      2140.0  Rx         0197  8  25 00 00 00 00 00 00 00
   475)      2150.0  Rx         0106  8  1C D4 00 00 00 00 00 00
   476)      2150.0  Rx         0197  8  25 00 00 00 00 00 00 00
   477)      2160.0  Rx         0106  8  1C E0 00 00 00 00 00 00
   478)      2160.0  Rx         0197  8  25 00 00 00 00 00 00 00
   479)      2170.0  Rx         0106  8  1C EC 00 00 00 00 00 00
   480)      2170.0  Rx         0197  8  25 00 00 00 00 00 00 00
   481)      2180.0  Rx         0106  8  1C F8 00 00 00 00 00 00
   482)      2180.0  Rx         0197  8  25 00 00 00 00 00 00 00
   483)      2190.0  Rx         0106  8  1D 04 00 00 00 00 00 00
   484)      2190.0  Rx         0197  8  25 00 00 00 00 00 00 00
   485)      2200.0  Rx         0106  8  1D 10 00 00 00 00 00 00
   486)      2200.0  Rx         0197  8  25 00 00 00 00 00 00 00
   487)      2200.0  Rx         0280  8  00 00 7C 50 00 00 00 00
   488)      2200.0  Rx         02B5  8  00 00 02 00 00 00 00 00
   489)      2210.0  Rx         0106  8  1D 1C 00 00 00 00 00 00
   490)      2210.0  Rx         0197  8  25 00 00 00 00 00 00 00
   491)      2220.0  Rx         0106  8  1D 28 00 00 00 00 00 00
   492)      2220.0  Rx         0197  8  25 00 00 00 00 00 00 00
   493)      2230.0  Rx         0106  8  1D 34 00 00 00 00 00 00
   494)      2230.0  Rx         0197  8  25 00 00 00 00 00 00 00
   495)      2240.0  Rx         0106  8  1D 40 00 00 00 00 00 00
   496)      2240.0  Rx         0197  8  25 00 00 00 00 00 00 00
   497)      2250.0  Rx         0106  8  1D 4C 00 00 00 00 00 00
   498)      2250.0  Rx         0197  8  26 00 00 00 00 00 00 00
   499)      2260.0  Rx         0106  8  1D 58 00 00 00 00 00 00
   500)      2260.0  Rx         0197  8  26 00 00 00 00 00 00 00
   501)      2270.0  Rx         0106  8  1D 64 00 00 00 00 00 00
   502)      2270.0  Rx         0197  8  26 00 00 00 00 00 00 00
   503)      2280.0  Rx         0106  8  1D 70 00 00 00 00 00 00
   504)      2280.0  Rx         0197  8  26 00 00 00 00 00 00 00
   505)      2290.0  Rx         0106  8  1D 7C 00 00 00 00 00 00
   506)      2290.0  Rx         0197  8  26 00 00 00 00 00 00 00
   507)      2300.0  Rx         0106  8  1D 88 00 00 00 00 00 00
   508)      2300.0  Rx         0197  8  26 00 00 00 00 00 00 00
   509)      2300.0  Rx         0280  8  00 00 7C 50 00 00 00 00
   510)      2300.0  Rx         02B5  8  00 00 02 00 00 00 00 00
   511)      2310.0  Rx         0106  8  1D 94 00 00 00 00 00 00
   512)      2310.0  Rx         0197  8  26 00 00 00 00 00 00 00
   513)      2320.0  Rx         0106  8  1D A0 00 00 00 00 00 00
   514)      2320.0  Rx         0197  8  26 00 00 00 00 00 00 00
   515)      2330.0  Rx         0106  8  1D AC 00 00 00 00 00 00
   516)      2330.0  Rx         0197  8  26 00 00 00 00 00 00 00
   517)      2340.0  Rx         0106  8  1D B8 00 00 00 00 00 00
   518)      2340.0  Rx         0197  8  26 00 00 00 00 00 00 00
   519)      2350.0  Rx         0106  8  1D C4 00 00 00 00 00 00
   520)      2350.0  Rx         0197  8  26 00 00 00 00 00 00 00
   521)      2360.0  Rx         0106  8  1D D0 00 00 00 00 00 00
   522)      2360.0  Rx         0197  8  26 00 00 00 00 00 00 00
   523)      2370.0  Rx         0106  8  1D DC 00 00 00 00 00 00
   524)      2370.0  Rx         0197  8  26 00 00 00 00 00 00 00
   525)      2380.0  Rx         0106  8  1D E8 00 00 00 00 00 00
   526)      2380.0  Rx         0197  8  27 00 00 00 00 00 00 00
   527)      2390.0  Rx         0106  8  1D F4 00 00 00 00 00 00
   528)      2390.0  Rx         0197  8  27 00 00 00 00 00 00 00
   529)      2400.0  Rx         0106  8  1E 00 00 00 00 00 00 00
   530)      2400.0  Rx         0197  8  27 00 00 00 00 00 00 00
   531)      2400.0  Rx         0280  8  00 00 7C 50 00 00 00 00
   532)      2400.0  Rx         02B5  8  00 00 02 00 00 00 00 00
   533)      2410.0  Rx         0106  8  1E 0C 00 00 00 00 00 00
   534)      2410.0  Rx         0197  8  27 00 00 00 00 00 00 00
   535)      2420.0  Rx         0106  8  1E 18 00 00 00 00 00 00
   536)      2420.0  Rx         0197  8  27 00 00 00 00 00 00 00
   537)      2430.0  Rx         0106  8  1E 24 00 00 00 00 00 00
   538)      2430.0  Rx         0197  8  27 00 00 00 00 00 00 00
   539)      2440.0  Rx         0106  8  1E 30 00 00 00 00 00 00
   540)      2440.0  Rx         0197  8  27 00 00 00 00 00 00 00
   541)      2450.0  Rx         0106  8  1E 3C 00 00 00 00 00 00
   542)      2450.0  Rx         0197  8  27 00 00 00 00 00 00 00
   543)      2460.0  Rx         0106  8  1E 48 00 00 00 00 00 00
   544)      2460.0  Rx         0197  8  27 00 00 00 00 00 00 00
   545)      2470.0  Rx         0106  8  1E 54 00 00 00 00 00 00
   546)      2470.0  Rx         0197  8  27 00 00 00 00 00 00 00
   547)      2480.0  Rx         0106  8  1E 60 00 00 00 00 00 00
   548)      2480.0  Rx         0197  8  27 00 00 00 00 00 00 00
   549)      2490.0  Rx         0106  8  1E 6C 00 00 00 00 00 00
   550)      2490.0  Rx         0197  8  27 00 00 00 00 00 00 00
   551)      2500.0  Rx         0106  8  1E 78 00 00 00 00 00 00
   552)      2500.0  Rx         0197  8  28 00 00 00 00 00 00 00
   553)      2500.0  Rx         0280  8  00 00 7D 50 00 00 00 00
   554)      2500.0  Rx         02B5  8  00 00 02 00 00 00 00 00
   555)      2510.0  Rx         0106  8  1E 84 00 00 00 00 00 00
   556)      2510.0  Rx         0197  8  28 00 00 00 00 00 00 00
   557)      2520.0  Rx         0106  8  1E 90 00 00 00 00 00 00
   558)      2520.0  Rx         0197  8  28 00 00 00 00 00 00 00
   559)      2530.0  Rx         0106  8  1E 9C 00 00 00 00 00 00
   560)      2530.0  Rx         0197  8  28 00 00 00 00 00 00 00
   561)      2540.0  Rx         0106  8  1E A8 00 00 00 00 00 00
   562)      2540.0  Rx         0197  8  28 00 00 00 00 00 00 00
   563)      2550.0  Rx         0106  8  1E B4 00 00 00 00 00 00
   564)      2550.0  Rx         0197  8  28 00 00 00 00 00 00 00
   565)      2560.0  Rx         0106  8  1E C0 00 00 00 00 00 00
   566)      2560.0  Rx         0197  8  28 00 00 00 00 00 00 00
   567)      2570.0  Rx         0106  8  1E CC 00 00 00 00 00 00
   568)      2570.0  Rx         0197  8  28 00 00 00 00 00 00 00
   569)      2580.0  Rx         0106  8  1E D8 00 00 00 00 00 00
   570)      2580.0  Rx         0197  8  28 00 00 00 00 00 00 00
   571)      2590.0  Rx         0106  8  1E E4 00 00 00 00 00 00
   572)      2590.0  Rx         0197  8  28 00 00 00 00 00 00 00
   573)      2600.0  Rx         0106  8  1E F0 00 00 00 00 00 00
   574)      2600.0  Rx         0197  8  28 00 00 00 00 00 00 00
   575)      2600.0  Rx         0280  8  00 00 7D 50 00 00 00 00
   576)      2600.0  Rx         02B5  8  00 00 02 00 00 00 00 00
   577)      2610.0  Rx         0106  8  1E FC 00 00 00 00 00 00
   578)      2610.0  Rx         0197  8  28 00 00 00 00 00 00 00
   579)      2620.0  Rx         0106  8  1F 08 00 00 00 00 00 00
   580)      2620.0  Rx         0197  8  28 00 00 00 00 00 00 00
   581)      2630.0  Rx         0106  8  1F 14 00 00 00 00 00 00
   582)      2630.0  Rx         0197  8  29 00 00 00 00 00 00 00
   583)      2640.0  Rx         0106  8  1F 20 00 00 00 00 00 00
   584)      2640.0  Rx         0197  8  29 00 00 00 00 00 00 00
   585)      2650.0  Rx         0106  8  1F 2C 00 00 00 00 00 00
   586)      2650.0  Rx         0197  8  29 00 00 00 00 00 00 00
   587)      2660.0  Rx         0106  8  1F 38 00 00 00 00 00 00
   588)      2660.0  Rx         0197  8  29 00 00 00 00 00 00 00
   589)      2670.0  Rx         0106  8  1F 44 00 00 00 00 00 00
   590)      2670.0  Rx         0197  8  29 00 00 00 00 00 00 00
   591)      2680.0  Rx         0106  8  1F 50 00 00 00 00 00 00
   592)      2680.0  Rx         0197  8  29 00 00 00 00 00 00 00
   593)      2690.0  Rx         0106  8  1F 5C 00 00 00 00 00 00
   594)      2690.0  Rx         0197  8  29 00 00 00 00 00 00 00
   595)      2700.0  Rx         0106  8  1F 68 00 00 00 00 00 00
   596)      2700.0  Rx         0197  8  29 00 00 00 00 00 00 00
   597)      2700.0  Rx         0280  8  00 00 7D 50 00 00 00 00
   598)      2700.0  Rx         02B5  8  00 00 02 00 00 00 00 00
   599)      2710.0  Rx         0106  8  1F 74 00 00 00 00 00 00
   600)      2710.0  Rx         0197  8  29 00 00 00 00 00 00 00
   601)      2720.0  Rx         0106  8  1F 80 00 00 00 00 00 00
   602)      2720.0  Rx         0197  8  29 00 00 00 00 00 00 00
   603)      2730.0  Rx         0106  8  1F 8C 00 00 00 00 00 00
   604)      2730.0  Rx         0197  8  29 00 00 00 00 00 00 00
   605)      2740.0  Rx         0106  8  1F 98 00 00 00 00 00 00
   606)      2740.0  Rx         0197  8  29 00 00 00 00 00 00 00
   607)      2750.0  Rx         0106  8  1F A4 00 00 00 00 00 00
   608)      2750.0  Rx         0197  8  2A 00 00 00 00 00 00 00
   609)      2760.0  Rx         0106  8  1F B0 00 00 00 00 00 00
   610)      2760.0  Rx         0197  8  2A 00 00 00 00 00 00 00
   611)      2770.0  Rx         0106  8  1F BC 00 00 00 00 00 00
   612)      2770.0  Rx         0197  8  2A 00 00 00 00 00 00 00
   613)      2780.0  Rx         0106  8  1F C8 00 00 00 00 00 00
   614)      2780.0  Rx         0197  8  2A 00 00 00 00 00 00 00
   615)      2790.0  Rx         0106  8  1F D4 00 00 00 00 00 00
   616)      2790.0  Rx         0197  8  2A 00 00 00 00 00 00 00
   617)      2800.0  Rx         0106  8  1F E0 00 00 00 00 00 00
   618)      2800.0  Rx         0197  8  2A 00 00 00 00 00 00 00
   619)      2800.0  Rx         0280  8  00 00 7D 50 00 00 00 00
   620)      2800.0  Rx         02B5  8  00 00 02 00 00 00 00 00
   621)      2810.0  Rx         0106  8  1F EC 00 00 00 00 00 00
   622)      2810.0  Rx         0197  8  2A 00 00 00 00 00 00 00
   623)      2820.0  Rx         0106  8  1F F8 00 00 00 00 00 00
   624)      2820.0  Rx         0197  8  2A 00 00 00 00 00 00 00
   625)      2830.0  Rx         0106  8  20 04 00 00 00 00 00 00
   626)      2830.0  Rx         0197  8  2A 00 00 00 00 00 00 00
   627)      2840.0  Rx         0106  8  20 10 00 00 00 00 00 00
   628)      2840.0  Rx         0197  8  2A 00 00 00 00 00 00 00
   629)      2850.0  Rx         0106  8  20 1C 00 00 00 00 00 00
   630)      2850.0  Rx         0197  8  2A 00 00 00 00 00 00 00
   631)      2860.0  Rx         0106  8  20 28 00 00 00 00 00 00
   632)      2860.0  Rx         0197  8  2A 00 00 00 00 00 00 00
   633)      2870.0  Rx         0106  8  20 34 00 00 00 00 00 00
   634)      2870.0  Rx         0197  8  2A 00 00 00 00 00 00 00
   635)      2880.0  Rx         0106  8  20 40 00 00 00 00 00 00
   636)      2880.0  Rx         0197  8  2B 00 00 00 00 00 00 00
   637)      2890.0  Rx         0106  8  20 4C 00 00 00 00 00 00
   638)      2890.0  Rx         0197  8  2B 00 00 00 00 00 00 00
   639)      2900.0  Rx         0106  8  20 58 00 00 00 00 00 00
   640)      2900.0  Rx         0197  8  2B 00 00 00 00 00 00 00
   641)      2900.0  Rx         0280  8  00 00 7D 50 00 00 00 00
   642)      2900.0  Rx         02B5  8  00 00 02 00 00 00 00 00
   643)      2910.0  Rx         0106  8  20 64 00 00 00 00 00 00
   644)      2910.0  Rx         0197  8  2B 00 00 00 00 00 00 00
   645)      2920.0  Rx         0106  8  20 70 00 00 00 00 00 00
   646)      2920.0  Rx         0197  8  2B 00 00 00 00 00 00 00
   647)      2930.0  Rx         0106  8  20 7C 00 00 00 00 00 00
   648)      2930.0  Rx         0197  8  2B 00 00 00 00 00 00 00
   649)      2940.0  Rx         0106  8  20 88 00 00 00 00 00 00
   650)      2940.0  Rx         0197  8  2B 00 00 00 00 00 00 00
   651)      2950.0  Rx         0106  8  20 94 00 00 00 00 00 00
   652)      2950.0  Rx         0197  8  2B 00 00 00 00 00 00 00
   653)      2960.0  Rx         0106  8  20 A0 00 00 00 00 00 00
   654)      2960.0  Rx         0197  8  2B 00 00 00 00 00 00 00
   655)      2970.0  Rx         0106  8  20 AC 00 00 00 00 00 00
   656)      2970.0  Rx         0197  8  2B 00 00 00 00 00 00 00
   657)      2980.0  Rx         0106  8  20 B8 00 00 00 00 00 00
   658)      2980.0  Rx         0197  8  2B 00 00 00 00 00 00 00
   659)      2990.0  Rx         0106  8  20 C4 00 00 00 00 00 00
   660)      2990.0  Rx         0197  8  2B 00 00 00 00 00 00 00
   661)      3000.0  Rx         0106  8  20 D0 00 00 00 00 00 00
   662)      3000.0  Rx         0197  8  2C 00 00 00 00 00 00 00
   663)      3000.0  Rx         0280  8  00 00 7D 50 00 00 00 00
   664)      3000.0  Rx         02B5  8  00 00 02 00 00 00 00 00
   665)      3010.0  Rx         0106  8  20 DC 00 00 00 00 00 00
   666)      3010.0  Rx         0197  8  2C 00 00 00 00 00 00 00
   667)      3020.0  Rx         0106  8  20 E8 00 00 00 00 00 00
   668)      3020.0  Rx         0197  8  2C 00 00 00 00 00 00 00
   669)      3030.0  Rx         0106  8  20 F4 00 00 00 00 00 00
   670)      3030.0  Rx         0197  8  2C 00 00 00 00 00 00 00
   671)      3040.0  Rx         0106  8  21 00 00 00 00 00 00 00
   672)      3040.0  Rx         0197  8  2C 00 00 00 00 00 00 00
   673)      3050.0  Rx         0106  8  21 0C 00 00 00 00 00 00
   674)      3050.0  Rx         0197  8  2C 00 00 00 00 00 00 00
   675)      3060.0  Rx         0106  8  21 18 00 00 00 00 00 00
   676)      3060.0  Rx         0197  8  2C 00 00 00 00 00 00 00
   677)      3070.0  Rx         0106  8  21 24 00 00 00 00 00 00
   678)      3070.0  Rx         0197  8  2C 00 00 00 00 00 00 00
   679)      3080.0  Rx         0106  8  21 30 00 00 00 00 00 00
   680)      3080.0  Rx         0197  8  2C 00 00 00 00 00 00 00
   681)      3090.0  Rx         0106  8  21 3C 00 00 00 00 00 00
   682)      3090.0  Rx         0197  8  2C 00 00 00 00 00 00 00
   683)      3100.0  Rx         0106  8  21 48 00 00 00 00 00 00
   684)      3100.0  Rx         0197  8  2C 00 00 00 00 00 00 00
   685)      3100.0  Rx         0280  8  00 00 7D 50 00 00 00 00
   686)      3100.0  Rx         02B5  8  00 00 02 00 00 00 00 00
   687)      3110.0  Rx         0106  8  21 54 00 00 00 00 00 00
   688)      3110.0  Rx         0197  8  2C 00 00 00 00 00 00 00
   689)      3120.0  Rx         0106  8  21 60 00 00 00 00 00 00
   690)      3120.0  Rx         0197  8  2C 00 00 00 00 00 00 00
   691)      3130.0  Rx         0106  8  21 6C 00 00 00 00 00 00
   692)      3130.0  Rx         0197  8  2D 00 00 00 00 00 00 00
   693)      3140.0  Rx         0106  8  21 78 00 00 00 00 00 00
   694)      3140.0  Rx         0197  8  2D 00 00 00 00 00 00 00
   695)      3150.0  Rx         0106  8  21 84 00 00 00 00 00 00
   696)      3150.0  Rx         0197  8  2D 00 00 00 00 00 00 00
   697)      3160.0  Rx         0106  8  21 90 00 00 00 00 00 00
   698)      3160.0  Rx         0197  8  2D 00 00 00 00 00 00 00
   699)      3170.0  Rx         0106  8  21 9C 00 00 00 00 00 00
   700)      3170.0  Rx         0197  8  2D 00 00 00 00 00 00 00
   701)      3180.0  Rx         0106  8  21 A8 00 00 00 00 00 00
   702)      3180.0  Rx         0197  8  2D 00 00 00 00 00 00 00
   703)      3190.0  Rx         0106  8  21 B4 00 00 00 00 00 00
   704)      3190.0  Rx         0197  8  2D 00 00 00 00 00 00 00
   705)      3200.0  Rx         0106  8  21 C0 00 00 00 00 00 00
   706)      3200.0  Rx         0197  8  2D 00 00 00 00 00 00 00
   707)      3200.0  Rx         0280  8  00 00 7D 50 00 00 00 00
   708)      3200.0  Rx         02B5  8  00 00 02 00 00 00 00 00
   709)      3210.0  Rx         0106  8  21 CC 00 00 00 00 00 00
   710)      3210.0  Rx         0197  8  2D 00 00 00 00 00 00 00
   711)      3220.0  Rx         0106  8  21 D8 00 00 00 00 00 00
   712)      3220.0  Rx         0197  8  2D 00 00 00 00 00 00 00
   713)      3230.0  Rx         0106  8  21 E4 00 00 00 00 00 00
   714)      3230.0  Rx         0197  8  2D 00 00 00 00 00 00 00
   715)      3240.0  Rx         0106  8  21 F0 00 00 00 00 00 00
   716)      3240.0  Rx         0197  8  2D 00 00 00 00 00 00 00
   717)      3250.0  Rx         0106  8  21 FC 00 00 00 00 00 00
   718)      3250.0  Rx         0197  8  2E 00 00 00 00 00 00 00
   719)      3260.0  Rx         0106  8  22 08 00 00 00 00 00 00
   720)      3260.0  Rx         0197  8  2E 00 00 00 00 00 00 00
   721)      3270.0  Rx         0106  8  22 14 00 00 00 00 00 00
   722)      3270.0  Rx         0197  8  2E 00 00 00 00 00 00 00
   723)      3280.0  Rx         0106  8  22 20 00 00 00 00 00 00
   724)      3280.0  Rx         0197  8  2E 00 00 00 00 00 00 00
   725)      3290.0  Rx         0106  8  22 2C 00 00 00 00 00 00
   726)      3290.0  Rx         0197  8  2E 00 00 00 00 00 00 00
   727)      3300.0  Rx         0106  8  22 38 00 00 00 00 00 00
   728)      3300.0  Rx         0197  8  2E 00 00 00 00 00 00 00
   729)      3300.0  Rx         0280  8  00 00 7D 50 00 00 00 00
   730)      3300.0  Rx         02B5  8  00 00 02 00 00 00 00 00
   731)      3310.0  Rx         0106  8  22 44 00 00 00 00 00 00
   732)      3310.0  Rx         0197  8  2E 00 00 00 00 00 00 00
   733)      3320.0  Rx         0106  8  22 50 00 00 00 00 00 00
   734)      3320.0  Rx         0197  8  2E 00 00 00 00 00 00 00
   735)      3330.0  Rx         0106  8  22 5C 00 00 00 00 00 00
   736)      3330.0  Rx         0197  8  2E 00 00 00 00 00 00 00
   737)      3340.0  Rx         0106  8  22 68 00 00 00 00 00 00
   738)      3340.0  Rx         0197  8  2E 00 00 00 00 00 00 00
   739)      3350.0  Rx         0106  8  22 74 00 00 00 00 00 00
   740)      3350.0  Rx         0197  8  2E 00 00 00 00 00 00 00
   741)      3360.0  Rx         0106  8  22 80 00 00 00 00 00 00
   742)      3360.0  Rx         0197  8  2E 00 00 00 00 00 00 00
   743)      3370.0  Rx         0106  8  22 8C 00 00 00 00 00 00
   744)      3370.0  Rx         0197  8  2E 00 00 00 00 00 00 00
   745)      3380.0  Rx         0106  8  22 98 00 00 00 00 00 00
   746)      3380.0  Rx         0197  8  2F 00 00 00 00 00 00 00
   747)      3390.0  Rx         0106  8  22 A4 00 00 00 00 00 00
   748)      3390.0  Rx         0197  8  2F 00 00 00 00 00 00 00
   749)      3400.0  Rx         0106  8  22 B0 00 00 00 00 00 00
   750)      3400.0  Rx         0197  8  2F 00 00 00 00 00 00 00
   751)      3400.0  Rx         0280  8  00 00 7E 50 00 00 00 00
   752)      3400.0  Rx         02B5  8  00 00 02 00 00 00 00 00
   753)      3410.0  Rx         0106  8  22 BC 00 00 00 00 00 00
   754)      3410.0  Rx         0197  8  2F 00 00 00 00 00 00 00
   755)      3420.0  Rx         0106  8  22 C8 00 00 00 00 00 00
   756)      3420.0  Rx         0197  8  2F 00 00 00 00 00 00 00
   757)      3430.0  Rx         0106  8  22 D4 00 00 00 00 00 00
   758)      3430.0  Rx         0197  8  2F 00 00 00 00 00 00 00
   759)      3440.0  Rx         0106  8  22 E0 00 00 00 00 00 00
   760)      3440.0  Rx         0197  8  2F 00 00 00 00 00 00 00
   761)      3450.0  Rx         0106  8  22 EC 00 00 00 00 00 00
   762)      3450.0  Rx         0197  8  2F 00 00 00 00 00 00 00
   763)      3460.0  Rx         0106  8  22 F8 00 00 00 00 00 00
   764)      3460.0  Rx         0197  8  2F 00 00 00 00 00 00 00
   765)      3470.0  Rx         0106  8  23 04 00 00 00 00 00 00
   766)      3470.0  Rx         0197  8  2F 00 00 00 00 00 00 00
   767)      3480.0  Rx         0106  8  23 10 00 00 00 00 00 00
   768)      3480.0  Rx         0197  8  2F 00 00 00 00 00 00 00
   769)      3490.0  Rx         0106  8  23 1C 00 00 00 00 00 00
   770)      3490.0  Rx         0197  8  2F 00 00 00 00 00 00 00
   771)      3500.0  Rx         0106  8  23 28 00 00 00 00 00 00
   772)      3500.0  Rx         0197  8  30 00 00 00 00 00 00 00
   773)      3500.0  Rx         0280  8  00 00 7E 50 00 00 00 00
   774)      3500.0  Rx         02B5  8  00 00 02 00 00 00 00 00
   775)      3510.0  Rx         0106  8  23 34 00 00 00 00 00 00
   776)      3510.0  Rx         0197  8  30 00 00 00 00 00 00 00
   777)      3520.0  Rx         0106  8  23 40 00 00 00 00 00 00
   778)      3520.0  Rx         0197  8  30 00 00 00 00 00 00 00
   779)      3530.0  Rx         0106  8  23 4C 00 00 00 00 00 00
   780)      3530.0  Rx         0197  8  30 00 00 00 00 00 00 00
   781)      3540.0  Rx         0106  8  23 58 00 00 00 00 00 00
   782)      3540.0  Rx         0197  8  30 00 00 00 00 00 00 00
   783)      3550.0  Rx         0106  8  23 64 00 00 00 00 00 00
   784)      3550.0  Rx         0197  8  30 00 00 00 00 00 00 00
   785)      3560.0  Rx         0106  8  23 70 00 00 00 00 00 00
   786)      3560.0  Rx         0197  8  30 00 00 00 00 00 00 00
   787)      3570.0  Rx         0106  8  23 7C 00 00 00 00 00 00
   788)      3570.0  Rx         0197  8  30 00 00 00 00 00 00 00
   789)      3580.0  Rx         0106  8  23 88 00 00 00 00 00 00
   790)      3580.0  Rx         0197  8  30 00 00 00 00 00 00 00
   791)      3590.0  Rx         0106  8  23 94 00 00 00 00 00 00
   792)      3590.0  Rx         0197  8  30 00 00 00 00 00 00 00
   793)      3600.0  Rx         0106  8  23 A0 00 00 00 00 00 00
   794)      3600.0  Rx         0197  8  30 00 00 00 00 00 00 00
   795)      3600.0  Rx         0280  8  00 00 7E 50 00 00 00 00
   796)      3600.0  Rx         02B5  8  00 00 02 00 00 00 00 00
   797)      3610.0  Rx         0106  8  23 AC 00 00 00 00 00 00
   798)      3610.0  Rx         0197  8  30 00 00 00 00 00 00 00
   799)      3620.0  Rx         0106  8  23 B8 00 00 00 00 00 00
   800)      3620.0  Rx         0197  8  30 00 00 00 00 00 00 00
   801)      3630.0  Rx         0106  8  23 C4 00 00 00 00 00 00
   802)      3630.0  Rx         0197  8  31 00 00 00 00 00 00 00
   803)      3640.0  Rx         0106  8  23 D0 00 00 00 00 00 00
   804)      3640.0  Rx         0197  8  31 00 00 00 00 00 00 00
   805)      3650.0  Rx         0106  8  23 DC 00 00 00 00 00 00
   806)      3650.0  Rx         0197  8  31 00 00 00 00 00 00 00
   807)      3660.0  Rx         0106  8  23 E8 00 00 00 00 00 00
   808)      3660.0  Rx         0197  8  31 00 00 00 00 00 00 00
   809)      3670.0  Rx         0106  8  23 F4 00 00 00 00 00 00
   810)      3670.0  Rx         0197  8  31 00 00 00 00 00 00 00
   811)      3680.0  Rx         0106  8  24 00 00 00 00 00 00 00
   812)      3680.0  Rx         0197  8  31 00 00 00 00 00 00 00
   813)      3690.0  Rx         0106  8  24 0C 00 00 00 00 00 00
   814)      3690.0  Rx         0197  8  31 00 00 00 00 00 00 00
   815)      3700.0  Rx         0106  8  24 18 00 00 00 00 00 00
   816)      3700.0  Rx         0197  8  31 00 00 00 00 00 00 00
   817)      3700.0  Rx         0280  8  00 00 7E 50 00 00 00 00
   818)      3700.0  Rx         02B5  8  00 00 02 00 00 00 00 00
   819)      3710.0  Rx         0106  8  24 24 00 00 00 00 00 00
   820)      3710.0  Rx         0197  8  31 00 00 00 00 00 00 00
   821)      3720.0  Rx         0106  8  24 30 00 00 00 00 00 00
   822)      3720.0  Rx         0197  8  31 00 00 00 00 00 00 00
   823)      3730.0  Rx         0106  8  24 3C 00 00 00 00 00 00
   824)      3730.0  Rx         0197  8  31 00 00 00 00 00 00 00
   825)      3740.0  Rx         0106  8  24 48 00 00 00 00 00 00
   826)      3740.0  Rx         0197  8  31 00 00 00 00 00 00 00
   827)      3750.0  Rx         0106  8  24 54 00 00 00 00 00 00
   828)      3750.0  Rx         0197  8  32 00 00 00 00 00 00 00
   829)      3760.0  Rx         0106  8  24 60 00 00 00 00 00 00
   830)      3760.0  Rx         0197  8  32 00 00 00 00 00 00 00
   831)      3770.0  Rx         0106  8  24 6C 00 00 00 00 00 00
   832)      3770.0  Rx         0197  8  32 00 00 00 00 00 00 00
   833)      3780.0  Rx         0106  8  24 78 00 00 00 00 00 00
   834)      3780.0  Rx         0197  8  32 00 00 00 00 00 00 00
   835)      3790.0  Rx         0106  8  24 84 00 00 00 00 00 00
   836)      3790.0  Rx         0197  8  32 00 00 00 00 00 00 00
   837)      3800.0  Rx         0106  8  24 90 00 00 00 00 00 00
   838)      3800.0  Rx         0197  8  32 00 00 00 00 00 00 00
   839)      3800.0  Rx         0280  8  00 00 7E 50 00 00 00 00
   840)      3800.0  Rx         02B5  8  00 00 02 00 00 00 00 00
   841)      3810.0  Rx         0106  8  24 9C 00 00 00 00 00 00
   842)      3810.0  Rx         0197  8  32 00 00 00 00 00 00 00
   843)      3820.0  Rx         0106  8  24 A8 00 00 00 00 00 00
   844)      3820.0  Rx         0197  8  32 00 00 00 00 00 00 00
   845)      3830.0  Rx         0106  8  24 B4 00 00 00 00 00 00
   846)      3830.0  Rx         0197  8  32 00 00 00 00 00 00 00
   847)      3840.0  Rx         0106  8  24 C0 00 00 00 00 00 00
   848)      3840.0  Rx         0197  8  32 00 00 00 00 00 00 00
   849)      3850.0  Rx         0106  8  24 CC 00 00 00 00 00 00
   850)      3850.0  Rx         0197  8  32 00 00 00 00 00 00 00
   851)      3860.0  Rx         0106  8  24 D8 00 00 00 00 00 00
   852)      3860.0  Rx         0197  8  32 00 00 00 00 00 00 00
   853)      3870.0  Rx         0106  8  24 E4 00 00 00 00 00 00
   854)      3870.0  Rx         0197  8  32 00 00 00 00 00 00 00
   855)      3880.0  Rx         0106  8  24 F0 00 00 00 00 00 00
   856)      3880.0  Rx         0197  8  33 00 00 00 00 00 00 00
   857)      3890.0  Rx         0106  8  24 FC 00 00 00 00 00 00
   858)      3890.0  Rx         0197  8  33 00 00 00 00 00 00 00
   859)      3900.0  Rx         0106  8  25 08 00 00 00 00 00 00
   860)      3900.0  Rx         0197  8  33 00 00 00 00 00 00 00
   861)      3900.0  Rx         0280  8  00 00 7E 50 00 00 00 00
   862)      3900.0  Rx         02B5  8  00 00 02 00 00 00 00 00
   863)      3910.0  Rx         0106  8  25 14 00 00 00 00 00 00
   864)      3910.0  Rx         0197  8  33 00 00 00 00 00 00 00
   865)      3920.0  Rx         0106  8  25 20 00 00 00 00 00 00
   866)      3920.0  Rx         0197  8  33 00 00 00 00 00 00 00
   867)      3930.0  Rx         0106  8  25 2C 00 00 00 00 00 00
   868)      3930.0  Rx         0197  8  33 00 00 00 00 00 00 00
   869)      3940.0  Rx         0106  8  25 38 00 00 00 00 00 00
   870)      3940.0  Rx         0197  8  33 00 00 00 00 00 00 00
   871)      3950.0  Rx         0106  8  25 44 00 00 00 00 00 00
   872)      3950.0  Rx         0197  8  33 00 00 00 00 00 00 00
   873)      3960.0  Rx         0106  8  25 50 00 00 00 00 00 00
   874)      3960.0  Rx         0197  8  33 00 00 00 00 00 00 00
   875)      3970.0  Rx         0106  8  25 5C 00 00 00 00 00 00
   876)      3970.0  Rx         0197  8  33 00 00 00 00 00 00 00
   877)      3980.0  Rx         0106  8  25 68 00 00 00 00 00 00
   878)      3980.0  Rx         0197  8  33 00 00 00 00 00 00 00
   879)      3990.0  Rx         0106  8  25 74 00 00 00 00 00 00
   880)      3990.0  Rx         0197  8  33 00 00 00 00 00 00 00
   881)      4000.0  Rx         0106  8  25 80 00 00 00 00 00 00
   882)      4000.0  Rx         0197  8  34 00 00 00 00 00 00 00
   883)      4000.0  Rx         0280  8  00 00 7E 50 00 00 00 00
   884)      4000.0  Rx         02B5  8  00 00 02 00 00 00 00 00
   885)      4010.0  Rx         0106  8  25 8C 00 00 00 00 00 00
   886)      4010.0  Rx         0197  8  34 00 00 00 00 00 00 00
   887)      4020.0  Rx         0106  8  25 98 00 00 00 00 00 00
   888)      4020.0  Rx         0197  8  34 00 00 00 00 00 00 00
   889)      4030.0  Rx         0106  8  25 A4 00 00 00 00 00 00
   890)      4030.0  Rx         0197  8  34 00 00 00 00 00 00 00
   891)      4040.0  Rx         0106  8  25 B0 00 00 00 00 00 00
   892)      4040.0  Rx         0197  8  34 00 00 00 00 00 00 00
   893)      4050.0  Rx         0106  8  25 BC 00 00 00 00 00 00
   894)      4050.0  Rx         0197  8  34 00 00 00 00 00 00 00
   895)      4060.0  Rx         0106  8  25 C8 00 00 00 00 00 00
   896)      4060.0  Rx         0197  8  34 00 00 00 00 00 00 00
   897)      4070.0  Rx         0106  8  25 D4 00 00 00 00 00 00
   898)      4070.0  Rx         0197  8  34 00 00 00 00 00 00 00
   899)      4080.0  Rx         0106  8  25 E0 00 00 00 00 00 00
   900)      4080.0  Rx         0197  8  34 00 00 00 00 00 00 00
   901)      4090.0  Rx         0106  8  25 EC 00 00 00 00 00 00
   902)      4090.0  Rx         0197  8  34 00 00 00 00 00 00 00
   903)      4100.0  Rx         0106  8  25 F8 00 00 00 00 00 00
   904)      4100.0  Rx         0197  8  34 00 00 00 00 00 00 00
   905)      4100.0  Rx         0280  8  00 00 7E 50 00 00 00 00
   906)      4100.0  Rx         02B5  8  00 00 02 00 00 00 00 00
   907)      4110.0  Rx         0106  8  26 04 00 00 00 00 00 00
   908)      4110.0  Rx         0197  8  34 00 00 00 00 00 00 00
   909)      4120.0  Rx         0106  8  26 10 00 00 00 00 00 00
   910)      4120.0  Rx         0197  8  34 00 00 00 00 00 00 00
   911)      4130.0  Rx         0106  8  26 1C 00 00 00 00 00 00
   912)      4130.0  Rx         0197  8  35 00 00 00 00 00 00 00
   913)      4140.0  Rx         0106  8  26 28 00 00 00 00 00 00
   914)      4140.0  Rx         0197  8  35 00 00 00 00 00 00 00
   915)      4150.0  Rx         0106  8  26 34 00 00 00 00 00 00
   916)      4150.0  Rx         0197  8  35 00 00 00 00 00 00 00
   917)      4160.0  Rx         0106  8  26 40 00 00 00 00 00 00
   918)      4160.0  Rx         0197  8  35 00 00 00 00 00 00 00
   919)      4170.0  Rx         0106  8  26 4C 00 00 00 00 00 00
   920)      4170.0  Rx         0197  8  35 00 00 00 00 00 00 00
   921)      4180.0  Rx         0106  8  26 58 00 00 00 00 00 00
   922)      4180.0  Rx         0197  8  35 00 00 00 00 00 00 00
   923)      4190.0  Rx         0106  8  26 64 00 00 00 00 00 00
   924)      4190.0  Rx         0197  8  35 00 00 00 00 00 00 00
   925)      4200.0  Rx         0106  8  26 70 00 00 00 00 00 00
   926)      4200.0  Rx         0197  8  35 00 00 00 00 00 00 00
   927)      4200.0  Rx         0280  8  00 00 7F 50 00 00 00 00
   928)      4200.0  Rx         02B5  8  00 00 02 00 00 00 00 00
   929)      4210.0  Rx         0106  8  26 7C 00 00 00 00 00 00
   930)      4210.0  Rx         0197  8  35 00 00 00 00 00 00 00
   931)      4220.0  Rx         0106  8  26 88 00 00 00 00 00 00
   932)      4220.0  Rx         0197  8  35 00 00 00 00 00 00 00
   933)      4230.0  Rx         0106  8  26 94 00 00 00 00 00 00
   934)      4230.0  Rx         0197  8  35 00 00 00 00 00 00 00
   935)      4240.0  Rx         0106  8  26 A0 00 00 00 00 00 00
   936)      4240.0  Rx         0197  8  35 00 00 00 00 00 00 00
   937)      4250.0  Rx         0106  8  26 AC 00 00 00 00 00 00
   938)      4250.0  Rx         0197  8  36 00 00 00 00 00 00 00
   939)      4260.0  Rx         0106  8  26 B8 00 00 00 00 00 00
   940)      4260.0  Rx         0197  8  36 00 00 00 00 00 00 00
   941)      4270.0  Rx         0106  8  26 C4 00 00 00 00 00 00
   942)      4270.0  Rx         0197  8  36 00 00 00 00 00 00 00
   943)      4280.0  Rx         0106  8  26 D0 00 00 00 00 00 00
   944)      4280.0  Rx         0197  8  36 00 00 00 00 00 00 00
   945)      4290.0  Rx         0106  8  26 DC 00 00 00 00 00 00
   946)      4290.0  Rx         0197  8  36 00 00 00 00 00 00 00
   947)      4300.0  Rx         0106  8  26 E8 00 00 00 00 00 00
   948)      4300.0  Rx         0197  8  36 00 00 00 00 00 00 00
   949)      4300.0  Rx         0280  8  00 00 7F 50 00 00 00 00
   950)      4300.0  Rx         02B5  8  00 00 02 00 00 00 00 00
   951)      4310.0  Rx         0106  8  26 F4 00 00 00 00 00 00
   952)      4310.0  Rx         0197  8  36 00 00 00 00 00 00 00
   953)      4320.0  Rx         0106  8  27 00 00 00 00 00 00 00
   954)      4320.0  Rx         0197  8  36 00 00 00 00 00 00 00
   955)      4330.0  Rx         0106  8  27 0C 00 00 00 00 00 00
   956)      4330.0  Rx         0197  8  36 00 00 00 00 00 00 00
   957)      4340.0  Rx         0106  8  27 18 00 00 00 00 00 00
   958)      4340.0  Rx         0197  8  36 00 00 00 00 00 00 00
   959)      4350.0  Rx         0106  8  27 24 00 00 00 00 00 00
   960)      4350.0  Rx         0197  8  36 00 00 00 00 00 00 00
   961)      4360.0  Rx         0106  8  27 30 00 00 00 00 00 00
   962)      4360.0  Rx         0197  8  36 00 00 00 00 00 00 00
   963)      4370.0  Rx         0106  8  27 3C 00 00 00 00 00 00
   964)      4370.0  Rx         0197  8  36 00 00 00 00 00 00 00
   965)      4380.0  Rx         0106  8  27 48 00 00 00 00 00 00
   966)      4380.0  Rx         0197  8  37 00 00 00 00 00 00 00
   967)      4390.0  Rx         0106  8  27 54 00 00 00 00 00 00
   968)      4390.0  Rx         0197  8  37 00 00 00 00 00 00 00
   969)      4400.0  Rx         0106  8  27 60 00 00 00 00 00 00
   970)      4400.0  Rx         0197  8  37 00 00 00 00 00 00 00
   971)      4400.0  Rx         0280  8  00 00 7F 50 00 00 00 00
   972)      4400.0  Rx         02B5  8  00 00 02 00 00 00 00 00
   973)      4410.0  Rx         0106  8  27 6C 00 00 00 00 00 00
   974)      4410.0  Rx         0197  8  37 00 00 00 00 00 00 00
   975)      4420.0  Rx         0106  8  27 78 00 00 00 00 00 00
   976)      4420.0  Rx         0197  8  37 00 00 00 00 00 00 00
   977)      4430.0  Rx         0106  8  27 84 00 00 00 00 00 00
   978)      4430.0  Rx         0197  8  37 00 00 00 00 00 00 00
   979)      4440.0  Rx         0106  8  27 90 00 00 00 00 00 00
   980)      4440.0  Rx         0197  8  37 00 00 00 00 00 00 00
   981)      4450.0  Rx         0106  8  27 9C 00 00 00 00 00 00
   982)      4450.0  Rx         0197  8  37 00 00 00 00 00 00 00
   983)      4460.0  Rx         0106  8  27 A8 00 00 00 00 00 00
   984)      4460.0  Rx         0197  8  37 00 00 00 00 00 00 00
   985)      4470.0  Rx         0106  8  27 B4 00 00 00 00 00 00
   986)      4470.0  Rx         0197  8  37 00 00 00 00 00 00 00
   987)      4480.0  Rx         0106  8  27 C0 00 00 00 00 00 00
   988)      4480.0  Rx         0197  8  37 00 00 00 00 00 00 00
   989)      4490.0  Rx         0106  8  27 CC 00 00 00 00 00 00
   990)      4490.0  Rx         0197  8  37 00 00 00 00 00 00 00
   991)      4500.0  Rx         0106  8  27 D8 00 00 00 00 00 00
   992)      4500.0  Rx         0197  8  38 00 00 00 00 00 00 00
   993)      4500.0  Rx         0280  8  00 00 7F 50 00 00 00 00
   994)      4500.0  Rx         02B5  8  00 00 02 00 00 00 00 00
   995)      4510.0  Rx         0106  8  27 E4 00 00 00 00 00 00
   996)      4510.0  Rx         0197  8  38 00 00 00 00 00 00 00
   997)      4520.0  Rx         0106  8  27 F0 00 00 00 00 00 00
   998)      4520.0  Rx         0197  8  38 00 00 00 00 00 00 00
   999)      4530.0  Rx         0106  8  27 FC 00 00 00 00 00 00
  1000)      4530.0  Rx         0197  8  38 00 00 00 00 00 00 00
  1001)      4540.0  Rx         0106  8  28 08 00 00 00 00 00 00
  1002)      4540.0  Rx         0197  8  38 00 00 00 00 00 00 00
  1003)      4550.0  Rx         0106  8  28 14 00 00 00 00 00 00
  1004)      4550.0  Rx         0197  8  38 00 00 00 00 00 00 00
  1005)      4560.0  Rx         0106  8  28 20 00 00 00 00 00 00
  1006)      4560.0  Rx         0197  8  38 00 00 00 00 00 00 00
  1007)      4570.0  Rx         0106  8  28 2C 00 00 00 00 00 00
  1008)      4570.0  Rx         0197  8  38 00 00 00 00 00 00 00
  1009)      4580.0  Rx         0106  8  28 38 00 00 00 00 00 00
  1010)      4580.0  Rx         0197  8  38 00 00 00 00 00 00 00
  1011)      4590.0  Rx         0106  8  28 44 00 00 00 00 00 00
  1012)      4590.0  Rx         0197  8  38 00 00 00 00 00 00 00
  1013)      4600.0  Rx         0106  8  28 50 00 00 00 00 00 00
  1014)      4600.0  Rx         0197  8  38 00 00 00 00 00 00 00
  1015)      4600.0  Rx         0280  8  00 00 7F 50 00 00 00 00
  1016)      4600.0  Rx         02B5  8  00 00 02 00 00 00 00 00
  1017)      4610.0  Rx         0106  8  28 5C 00 00 00 00 00 00
  1018)      4610.0  Rx         0197  8  38 00 00 00 00 00 00 00
  1019)      4620.0  Rx         0106  8  28 68 00 00 00 00 00 00
  1020)      4620.0  Rx         0197  8  38 00 00 00 00 00 00 00
  1021)      4630.0  Rx         0106  8  28 74 00 00 00 00 00 00
  1022)      4630.0  Rx         0197  8  39 00 00 00 00 00 00 00
  1023)      4640.0  Rx         0106  8  28 80 00 00 00 00 00 00
  1024)      4640.0  Rx         0197  8  39 00 00 00 00 00 00 00
  1025)      4650.0  Rx         0106  8  28 8C 00 00 00 00 00 00
  1026)      4650.0  Rx         0197  8  39 00 00 00 00 00 00 00
  1027)      4660.0  Rx         0106  8  28 98 00 00 00 00 00 00
  1028)      4660.0  Rx         0197  8  39 00 00 00 00 00 00 00
  1029)      4670.0  Rx         0106  8  28 A4 00 00 00 00 00 00
  1030)      4670.0  Rx         0197  8  39 00 00 00 00 00 00 00
  1031)      4680.0  Rx         0106  8  28 B0 00 00 00 00 00 00
  1032)      4680.0  Rx         0197  8  39 00 00 00 00 00 00 00
  1033)      4690.0  Rx         0106  8  28 BC 00 00 00 00 00 00
  1034)      4690.0  Rx         0197  8  39 00 00 00 00 00 00 00
  1035)      4700.0  Rx         0106  8  28 C8 00 00 00 00 00 00
  1036)      4700.0  Rx         0197  8  39 00 00 00 00 00 00 00
  1037)      4700.0  Rx         0280  8  00 00 7F 50 00 00 00 00
  1038)      4700.0  Rx         02B5  8  00 00 02 00 00 00 00 00
  1039)      4710.0  Rx         0106  8  28 D4 00 00 00 00 00 00
  1040)      4710.0  Rx         0197  8  39 00 00 00 00 00 00 00
  1041)      4720.0  Rx         0106  8  28 E0 00 00 00 00 00 00
  1042)      4720.0  Rx         0197  8  39 00 00 00 00 00 00 00
  1043)      4730.0  Rx         0106  8  28 EC 00 00 00 00 00 00
  1044)      4730.0  Rx         0197  8  39 00 00 00 00 00 00 00
  1045)      4740.0  Rx         0106  8  28 F8 00 00 00 00 00 00
  1046)      4740.0  Rx         0197  8  39 00 00 00 00 00 00 00
  1047)      4750.0  Rx         0106  8  29 04 00 00 00 00 00 00
  1048)      4750.0  Rx         0197  8  3A 00 00 00 00 00 00 00
  1049)      4760.0  Rx         0106  8  29 10 00 00 00 00 00 00
  1050)      4760.0  Rx         0197  8  3A 00 00 00 00 00 00 00
  1051)      4770.0  Rx         0106  8  29 1C 00 00 00 00 00 00
  1052)      4770.0  Rx         0197  8  3A 00 00 00 00 00 00 00
  1053)      4780.0  Rx         0106  8  29 28 00 00 00 00 00 00
  1054)      4780.0  Rx         0197  8  3A 00 00 00 00 00 00 00
  1055)      4790.0  Rx         0106  8  29 34 00 00 00 00 00 00
  1056)      4790.0  Rx         0197  8  3A 00 00 00 00 00 00 00
  1057)      4800.0  Rx         0106  8  29 40 00 00 00 00 00 00
  1058)      4800.0  Rx         0197  8  3A 00 00 00 00 00 00 00
  1059)      4800.0  Rx         0280  8  00 00 7F 50 00 00 00 00
  1060)      4800.0  Rx         02B5  8  00 00 02 00 00 00 00 00
  1061)      4810.0  Rx         0106  8  29 4C 00 00 00 00 00 00
  1062)      4810.0  Rx         0197  8  3A 00 00 00 00 00 00 00
  1063)      4820.0  Rx         0106  8  29 58 00 00 00 00 00 00
  1064)      4820.0  Rx         0197  8  3A 00 00 00 00 00 00 00
  1065)      4830.0  Rx         0106  8  29 64 00 00 00 00 00 00
  1066)      4830.0  Rx         0197  8  3A 00 00 00 00 00 00 00
  1067)      4840.0  Rx         0106  8  29 70 00 00 00 00 00 00
  1068)      4840.0  Rx         0197  8  3A 00 00 00 00 00 00 00
  1069)      4850.0  Rx         0106  8  29 7C 00 00 00 00 00 00
  1070)      4850.0  Rx         0197  8  3A 00 00 00 00 00 00 00
  1071)      4860.0  Rx         0106  8  29 88 00 00 00 00 00 00
  1072)      4860.0  Rx         0197  8  3A 00 00 00 00 00 00 00
  1073)      4870.0  Rx         0106  8  29 94 00 00 00 00 00 00
  1074)      4870.0  Rx         0197  8  3A 00 00 00 00 00 00 00
  1075)      4880.0  Rx         0106  8  29 A0 00 00 00 00 00 00
  1076)      4880.0  Rx         0197  8  3B 00 00 00 00 00 00 00
  1077)      4890.0  Rx         0106  8  29 AC 00 00 00 00 00 00
  1078)      4890.0  Rx         0197  8  3B 00 00 00 00 00 00 00
  1079)      4900.0  Rx         0106  8  29 B8 00 00 00 00 00 00
  1080)      4900.0  Rx         0197  8  3B 00 00 00 00 00 00 00
  1081)      4900.0  Rx         0280  8  00 00 7F 50 00 00 00 00
  1082)      4900.0  Rx         02B5  8  00 00 02 00 00 00 00 00
  1083)      4910.0  Rx         0106  8  29 C4 00 00 00 00 00 00
  1084)      4910.0  Rx         0197  8  3B 00 00 00 00 00 00 00
  1085)      4920.0  Rx         0106  8  29 D0 00 00 00 00 00 00
  1086)      4920.0  Rx         0197  8  3B 00 00 00 00 00 00 00
  1087)      4930.0  Rx         0106  8  29 DC 00 00 00 00 00 00
  1088)      4930.0  Rx         0197  8  3B 00 00 00 00 00 00 00
  1089)      4940.0  Rx         0106  8  29 E8 00 00 00 00 00 00
  1090)      4940.0  Rx         0197  8  3B 00 00 00 00 00 00 00
  1091)      4950.0  Rx         0106  8  29 F4 00 00 00 00 00 00
  1092)      4950.0  Rx         0197  8  3B 00 00 00 00 00 00 00
  1093)      4960.0  Rx         0106  8  2A 00 00 00 00 00 00 00
  1094)      4960.0  Rx         0197  8  3B 00 00 00 00 00 00 00
  1095)      4970.0  Rx         0106  8  2A 0C 00 00 00 00 00 00
  1096)      4970.0  Rx         0197  8  3B 00 00 00 00 00 00 00
  1097)      4980.0  Rx         0106  8  2A 18 00 00 00 00 00 00
  1098)      4980.0  Rx         0197  8  3B 00 00 00 00 00 00 00
  1099)      4990.0  Rx         0106  8  2A 24 00 00 00 00 00 00
  1100)      4990.0  Rx         0197  8  3B 00 00 00 00 00 00 00
  1101)      5000.0  Rx         0106  8  2A 30 00 00 00 00 00 00
  1102)      5000.0  Rx         0197  8  3C 00 00 00 00 00 00 00
  1103)      5000.0  Rx         0280  8  00 00 80 50 00 00 00 00
  1104)      5000.0  Rx         02B5  8  00 00 02 00 00 00 00 00
